! Ansys Lumerical
! Created: seg ago 22 16:59:36 2022
! Project File: /home/moises/Documentos/GitHub/Ring-Resonator/Ring-Resonator/halfring_straight.fsp
! Touchstone File Format: Version 1.0
! Two-Port Data Order: 21_12
# HZ S MA R 50.00

! Optical Port List
! Port[0] = {"port 1","mode 1",1,"LEFT"}
! Port[1] = {"port 2","mode 1",1,"RIGHT"}
! Port[2] = {"port 3","mode 1",1,"BOTTOM"}
! Port[3] = {"port 4","mode 1",1,"BOTTOM"}


! FREQ                 AMP                    PHASE                   AMP                    PHASE                   AMP                    PHASE                   AMP                    PHASE  
1.8737028625000000e+14 3.7599565535623557e-03 1.7819668852429913e+02 9.1194766751628986e-01 -3.3034249193214805e+01 1.5450762806660627e-03 -1.4549179189024613e+02 3.9678469937984778e-01 -3.7278546581818468e+01
                       9.1184893530045741e-01 -3.3032914424021584e+01 3.8116516896475800e-03 -1.7960684657910409e+02 3.9678745123438647e-01 1.4271715364475071e+02 1.5165560304408890e-03 3.3814208196928647e+01
                       1.6268699258918376e-03 -1.5103185765165273e+02 3.9606486940513413e-01 1.4272254423162175e+02 7.1778691034145008e-03 -1.4632988479571665e+02 8.9083406870647863e-01 -4.1498353999550112e+01
                       3.9601096696830623e-01 -3.7272247764877235e+01 1.6098976831213764e-03 2.8396151789845398e+01 8.9083400466123497e-01 -4.1498329782336633e+01 7.1930779419548526e-03 -1.4657715564242457e+02
1.8789075926736112e+14 3.7915770979419340e-03 1.7752558528248778e+02 9.1662514109991788e-01 -1.2019644173675044e+01 1.2931735295262300e-03 -1.2478827399893395e+02 3.9087841433189474e-01 -1.2764405953924838e+01
                       9.1657249903940685e-01 -1.2028850800523159e+01 3.9211851039738397e-03 -1.8534338052888256e+02 3.9088112384435392e-01 1.6723118890434719e+02 1.2672969602231100e-03 5.4369481401609953e+01
                       1.3399073404769459e-03 -1.3136803250526407e+02 3.9016193358069062e-01 1.6724952705265031e+02 5.8343871051501142e-03 -1.3567492595388853e+02 8.9674827081339359e-01 -1.3137401674122589e+01
                       3.9011494773832250e-01 -1.2755426809050816e+01 1.3257640064083950e-03 4.7829016897584019e+01 8.9674854725279596e-01 -1.3137417188809074e+01 5.8580646851555309e-03 -1.3590260849604610e+02
1.8841123228472222e+14 2.8276101943071311e-03 1.7488835976015804e+02 9.1875031790352080e-01 8.9280738373853286e+00 9.9781485619281204e-04 -1.0732348422612422e+02 3.8381388876099670e-01 1.2071292873371524e+01
                       9.1867302772816772e-01 8.9307368242781315e+00 2.8432206552813592e-03 -1.8215646840183743e+02 3.8381619108615994e-01 1.9206686412402252e+02 9.7599364469910528e-04 7.1441564272064468e+01
                       1.0224221501668141e-03 -1.1547921939543387e+02 3.8312641878750159e-01 1.9207498955188868e+02 3.5440169155932558e-03 -1.1840060403525534e+02 9.0050957835334688e-01 1.5206221558516713e+01
                       3.8308539203106451e-01 1.2081265133063187e+01 1.0119216190287909e-03 6.3201373018504846e+01 9.0050929990009121e-01 1.5206249494165295e+01 3.5709060404957430e-03 -1.1869420238237699e+02
1.8893170530208334e+14 3.1576202964920799e-03 1.7244953912078321e+02 9.2371691440657100e-01 2.9979814176726098e+01 7.0098579601465241e-04 -9.4766720651938272e+01 3.7729290891086803e-01 3.6649057542572443e+01
                       9.2368948258332395e-01 2.9971797533157183e+01 3.2927140229582767e-03 -1.9043330504335574e+02 3.7729515675924818e-01 2.1664453239164030e+02 6.8529660857128696e-04 8.3291792411060712e+01
                       7.2055046455321808e-04 -1.0532553171575434e+02 3.7660933760290799e-01 2.1666426863044020e+02 2.1580628307710592e-03 -1.3156736681012444e+02 9.0658425632189044e-01 4.3629606958990877e+01
                       3.7658121423660518e-01 3.6661620572697792e+01 7.1669395944314344e-04 7.2648098245450058e+01 9.0658429961523224e-01 4.3629596126439168e+01 2.1895379050526943e-03 -1.3143914969106669e+02
1.8945217831944444e+14 2.5479756891906421e-03 1.7064077540050198e+02 9.2507057309537655e-01 5.0990873999245579e+01 5.1530346883725412e-04 -9.6272597574489097e+01 3.7087691047061433e-01 6.1484869556589864e+01
                       9.2501265892473250e-01 5.0994462620505502e+01 2.5239930888498424e-03 -1.8604101892644539e+02 3.7087868291773474e-01 2.4148031486998016e+02 5.1209127962068652e-04 8.0729345318820066e+01
                       5.5788569349553578e-04 -1.0843328732215521e+02 3.7023390408364160e-01 2.4149119271703964e+02 1.2141168768986792e-03 -1.5260351993141842e+02 9.0915985659124676e-01 7.2048304682218031e+01
                       3.7020096755128101e-01 6.1498370585544457e+01 5.6596266418162651e-04 6.8930146737722495e+01 9.0915921649029452e-01 7.2048321110213237e+01 1.2309148562107916e-03 -1.5140858821894730e+02
1.8997265133680556e+14 2.9749694485107607e-03 1.7623178020739510e+02 9.3007232172775678e-01 7.2055317515027781e+01 5.0376219540465409e-04 -9.9804266881065601e+01 3.6403052638753242e-01 8.6187105995590784e+01
                       9.3006415002701204e-01 7.2048482383211379e+01 3.0868522713593553e-03 -1.8664344317719602e+02 3.6403233329997353e-01 2.6618244996654971e+02 5.1299875458026163e-04 7.7582791024029504e+01
                       5.6483415900249884e-04 -1.0962451043038989e+02 3.6338714578811804e-01 2.6620428989260074e+02 2.1780633316920784e-03 -1.6892352041350023e+02 9.1511231800804993e-01 1.0049440959278668e+02
                       3.6337568907991213e-01 8.6203248503916654e+01 5.8259780021645302e-04 6.8423970484128120e+01 9.1511233831783945e-01 1.0049437809210167e+02 2.1716399358373221e-03 -1.6814054241628529e+02
1.9049312435416666e+14 2.2277093758426856e-03 1.8391557435228307e+02 9.3102069970063306e-01 9.3137010891724344e+01 6.0946208695689336e-04 -9.1721591604259245e+01 3.5789799851098142e-01 1.1097007871917856e+02
                       9.3097821366891365e-01 9.3141156523168661e+01 2.2105094394377052e-03 -1.7214149797553750e+02 3.5789941731993929e-01 2.9096539870389938e+02 6.2385838651277711e-04 8.6519452995535289e+01
                       6.6633169265848454e-04 -9.9209619038757751e+01 3.5730431331695595e-01 2.9097896753968371e+02 1.9026011659317406e-03 -1.5023482564565936e+02 9.1709508525499195e-01 1.2900474451601329e+02
                       3.5727668711593930e-01 1.1098714309178915e+02 6.8673715790066214e-04 7.9420588888344469e+01 9.1709454070881102e-01 1.2900475233271158e+02 1.8920166423139339e-03 -1.4943319559323336e+02
1.9101359737152778e+14 2.3436582763174830e-03 1.9445806072490115e+02 9.3568078309009528e-01 1.1420493224640875e+02 7.1625928412452329e-04 -6.8756027374720972e+01 3.5121680557856877e-01 1.3581544166074301e+02
                       9.3568674615421177e-01 1.1419936026007105e+02 2.3974043081955612e-03 -1.6948415883477782e+02 3.5121835641861338e-01 3.1581067470617336e+02 7.3050972816225343e-04 1.0990757236388706e+02
                       7.5170469398019282e-04 -7.5405747897764158e+01 3.5061805899068327e-01 3.1583472679917321e+02 2.1402483263414976e-03 -1.3392589195624453e+02 9.2235754862083852e-01 1.5746509602684634e+02
                       3.5061853710855978e-01 1.3583466874739406e+02 7.7119992333271820e-04 1.0343906876968329e+02 9.2235763812769633e-01 1.5746505861487358e+02 2.1249536004269054e-03 -1.3328704879327728e+02
1.9153407038888888e+14 1.3415874091311526e-03 2.1478468923401019e+02 9.3662223934398658e-01 1.3534954567897702e+02 7.9855076107616431e-04 -4.0613291740403007e+01 3.4492050229782339e-01 1.6054793947825561e+02
                       9.3658474391189450e-01 1.3535374863454902e+02 1.3906841220871287e-03 -1.3890857065862755e+02 3.4492167258576423e-01 3.4054316491373964e+02 8.1054356139850510e-04 1.3818799856344569e+02
                       8.0536573320259244e-04 -4.6672780085219614e+01 3.4437770042640264e-01 3.4055909009995486e+02 1.4489785329031863e-03 -8.5658744910113995e+01 9.2438025975642590e-01 1.8604909785989270e+02
                       3.4435313058894529e-01 1.6056803216569642e+02 8.2106545251287499e-04 1.3215447995491252e+02 9.2437991054227231e-01 1.8604910191380395e+02 1.4427807734511563e-03 -8.4631392882231452e+01
1.9205454340625000e+14 1.2063456004394969e-03 2.2270005321304410e+02 9.4059565278583035e-01 1.5642715167713015e+02 8.8140743569280254e-04 -7.3458912470378905e+00 3.3881508629148499e-01 1.8549817259338025e+02
                       9.4061814521342946e-01 1.5642235309493753e+02 1.1820496442697009e-03 -1.4454476190323692e+02 3.3881638927284968e-01 3.6549331175742515e+02 8.9074318459423263e-04 1.7154522429709212e+02
                       8.5874223377486298e-04 -1.2354922212883990e+01 3.3826194641004192e-01 3.6551901237663941e+02 9.2283840391658436e-04 -6.5002357741608407e+01 9.2857305237156451e-01 2.1454663841148539e+02
                       3.3827145267872460e-01 1.8551909668524965e+02 8.7056338278392823e-04 1.6645990183152242e+02 9.2857323522046897e-01 2.1454661384959641e+02 9.1466894517579168e-04 -6.3481416589108122e+01
1.9257501642361109e+14 5.4874797709359184e-04 2.9016017970567509e+02 9.4181904686098838e-01 1.7761334473854859e+02 9.4413324035589143e-04 2.6382175744370212e+01 3.3210467844538533e-01 2.1023465104430636e+02
                       9.4178301362300099e-01 1.7761789362837922e+02 6.9870365297621927e-04 -6.8008067753351455e+01 3.3210571131633654e-01 3.9022977930462145e+02 9.4984364939767736e-04 2.0536051498617843e+02
                       8.9684536316899939e-04 2.2817650225795731e+01 3.3161552489995810e-01 3.9024690978183037e+02 9.9081590467736593e-04 4.1195302408206320e+00 9.3085895272282027e-01 2.4316386797047085e+02
                       3.3159507227898560e-01 2.1025692319203290e+02 9.0362251731947933e-04 2.0170208716610156e+02 9.3085848411445482e-01 2.4316387245021562e+02 9.9964851068497576e-04 5.4455025206563992e+00
1.9309548944097222e+14 3.1597028578809387e-04 2.9174461679788988e+02 9.4495495143130470e-01 1.9871884911452631e+02 1.0332578347568683e-03 5.9333078099994950e+01 3.2668892864917642e-01 2.3521387911791570e+02
                       9.4497778209014371e-01 1.9871435860912172e+02 1.7768816645563707e-04 -7.9961058811614066e+01 3.2669021569097395e-01 4.1520894129318503e+02 1.0366323639382112e-03 2.3840692388196226e+02
                       9.7218161551096828e-04 5.7265290951302660e+01 3.2618677415370739e-01 4.1523649366493692e+02 3.3821420037404780e-04 7.8088545210537390e+01 9.3411741840810780e-01 2.7172984066976721e+02
                       3.2619533656758160e-01 2.3523624302668111e+02 9.7572970311996421e-04 2.3625513928553210e+02 9.3411770882554412e-01 2.7172981444550265e+02 3.5949217890344988e-04 7.9422625706299669e+01
1.9359660086208747e+14 7.8198185755337039e-04 3.6386542828159503e+02 9.4643543643765204e-01 2.1913430216587170e+02 1.0909507766237337e-03 8.9903324436049417e+01 3.1987044079890886e-01 2.5911143190077678e+02
                       9.4641313560109608e-01 2.1913818583153326e+02 8.6247921445995455e-04 -5.9245792633491430e+00 3.1987141762192817e-01 4.3910650945068909e+02 1.0923126389956368e-03 2.6910036809152763e+02
                       1.0250446650137187e-03 8.9180476720386224e+01 3.1942269855267491e-01 4.3912422627751727e+02 2.2319268682495063e-04 3.1723398183333781e+01 9.3626819850403697e-01 2.9928388630841050e+02
                       3.1941283054918085e-01 2.5913387026959214e+02 1.0267635436449428e-03 2.6833255774662581e+02 9.3626782644094864e-01 2.9928390512168369e+02 2.2255590923296167e-04 3.7469007863926564e+01
1.9361596245833331e+14 7.8480863136283258e-04 3.6641652740655968e+02 9.4648369553508016e-01 2.1991993302562295e+02 1.0926013460815039e-03 9.1007586579618504e+01 3.1965881824422626e-01 2.6002756808315178e+02
                       9.4645368023544529e-01 2.1992362328520559e+02 8.7411572439170077e-04 -2.9092494804897946e+00 3.1965977790628525e-01 4.4002264200530220e+02 1.0938862515384074e-03 2.7020819316674158e+02
                       1.0265867071748986e-03 9.0327920303230641e+01 3.1921513120678047e-01 4.4004066711104673e+02 2.1748756968351546e-04 3.4916550054083388e+01 9.3636520888618335e-01 3.0034686094158292e+02
                       3.1920220963542695e-01 2.6005009787353117e+02 1.0282330973417873e-03 2.6948572885696859e+02 9.3636479766786640e-01 3.0034687783792731e+02 2.1768907034173590e-04 4.0792137477573554e+01
1.9363532405457916e+14 7.8577559593005146e-04 3.6890588045950329e+02 9.4653595647181366e-01 2.2070541457339002e+02 1.0942502317687719e-03 9.2106032552727044e+01 3.1945326319474032e-01 2.6094401672305480e+02
                       9.4649867779443086e-01 2.2070885680561742e+02 8.8359289479151637e-04 6.3393791576069128e-02 3.1945420733385566e-01 4.4093908672432309e+02 1.0954596896183937e-03 2.7131006290080370e+02
                       1.0281319000135943e-03 9.1468669314581931e+01 3.1901339686737790e-01 4.4095748348398138e+02 2.0968079959614977e-04 3.8401123173434272e+01 9.3646590584519185e-01 3.0140988770414850e+02
                       3.1899759089341906e-01 2.6096663773554411e+02 1.0297057413609274e-03 2.7063203863258281e+02 9.3646545967742156e-01 3.0140990244980190e+02 2.1084056958888667e-04 4.4460379952524512e+01
1.9413643547569444e+14 4.5813758492821183e-04 3.7187608504119811e+02 9.4890047208065975e-01 2.4106975907461631e+02 1.1391232068182460e-03 1.1935067836699595e+02 3.1470743776860099e-01 2.8496436511541106e+02
                       9.4893704406757040e-01 2.4106612837352657e+02 4.2154565242367460e-04 3.0554954199347712e+01 3.1470856897721067e-01 4.6495935334820490e+02 1.1393203235894758e-03 2.9861537536572797e+02
                       1.0731248328320229e-03 1.1956554534826209e+02 3.1425740077993658e-01 4.6498659951096164e+02 6.8347556671979166e-04 -1.0014351757404670e+02 9.3923828327783265e-01 3.2899250371889860e+02
                       3.1426764433321569e-01 2.8498701448443461e+02 1.0735050682351098e-03 2.9880442353556731e+02 9.3923828577062818e-01 3.2899248905655736e+02 6.7854544049778583e-04 -1.0180731995088678e+02
1.9465690849305556e+14 1.0876995663360734e-03 3.7412652295023821e+02 9.5057433329414120e-01 2.6226607182234756e+02 1.1454780234323462e-03 1.4642405830296144e+02 3.0773651179681527e-01 3.0990121409160247e+02
                       9.5053203073395620e-01 2.6226958943194376e+02 1.1570474007151622e-03 7.3920516312191120e+00 3.0773750381074666e-01 4.8989620773137955e+02 1.1455933191695683e-03 3.2576855820308157e+02
                       1.0849450890718960e-03 1.4742683120760762e+02 3.0734333727930901e-01 4.8991497008351593e+02 1.4871268457235696e-03 -4.1001632897149804e+01 9.4092291117409210e-01 3.5760458902901792e+02
                       3.0733068893685989e-01 3.0992397617751521e+02 1.0860697353121042e-03 3.2672756787198978e+02 9.4092221661866704e-01 3.5760458770112041e+02 1.4726918679852908e-03 -4.1518149395792925e+01
1.9517738151041666e+14 8.6166252853139889e-04 3.6994536446514030e+02 9.5254039538974122e-01 2.8347080993262898e+02 1.1046765236588424e-03 1.7021089529869329e+02 3.0284007434386834e-01 3.3477007256173880e+02
                       9.5257708487459325e-01 2.8346719622317147e+02 7.9147434025599245e-04 1.9282244771166635e+01 3.0284110872066483e-01 5.1476500408987010e+02 1.1046171606635209e-03 3.4958077845199585e+02
                       1.0479828364699053e-03 1.7181361360848163e+02 3.0244014766966221e-01 5.1479183014839793e+02 1.8785228385533278e-03 -3.0460009405285465e+01 9.4396050742448456e-01 3.8631052815367639e+02
                       3.0244730630527505e-01 3.3479243580733947e+02 1.0487915389618106e-03 3.5113274578277833e+02 9.4396068701683911e-01 3.8631049765706234e+02 1.8700252349365828e-03 -3.0939680926447014e+01
1.9569785452777778e+14 1.5823159825295913e-03 3.7545238852221803e+02 9.5403817695423510e-01 3.0465189208413346e+02 1.0415675432719920e-03 1.9244927882471262e+02 2.9636032844120874e-01 3.5981780513659703e+02
                       9.5398281404303442e-01 3.0465480082175048e+02 1.6438962588503144e-03 1.0924952227483921e+01 2.9636117871348333e-01 5.3981267520429822e+02 1.0425715243376600e-03 3.7184196960244702e+02
                       9.9156713550134805e-04 1.9460248417268460e+02 2.9601426592491231e-01 5.3983177123155815e+02 2.6408969111090695e-03 -1.8688564122356879e+00 9.4477314705874715e-01 4.1494061043533617e+02
                       2.9599972001738140e-01 3.5983945978874760e+02 9.9376465851742663e-04 3.7387922215527692e+02 9.4477260281047182e-01 4.1494061175286117e+02 2.6320738366335155e-03 -2.1728560816903904e+00
1.9621832754513888e+14 1.3406742973165260e-03 3.7921116830612925e+02 9.5592048509845262e-01 3.2590802697837637e+02 9.3823756921550987e-04 2.1190505316007972e+02 2.9117967353490704e-01 3.8465339799206788e+02
                       9.5595503144926930e-01 3.2590418209582936e+02 1.2716702219139153e-03 2.5395998766201153e+01 2.9118093435247261e-01 5.6464819617964110e+02 9.3972629883072947e-04 3.9131387069616602e+02
                       8.9187332878876862e-04 2.1474364431857083e+02 2.9082616191601918e-01 5.6467366518786878e+02 2.1759684608492155e-03 1.3097489069471230e+01 9.4811925255056129e-01 4.4366914978328060e+02
                       2.9083165484822976e-01 3.8467449377457638e+02 8.9415454929162811e-04 3.9401190488675888e+02 9.4811938176336152e-01 4.4366912059618926e+02 2.1714335089453390e-03 1.2706983843416788e+01
1.9673880056250000e+14 1.8664358324728891e-03 3.8564869103000018e+02 9.5694060862403141e-01 3.4707805414685220e+02 8.4828432855618967e-04 2.2912449359563490e+02 2.8542760842137921e-01 4.0974488034848201e+02
                       9.5686837185438989e-01 3.4708043270895604e+02 1.8995375670952325e-03 2.1843010349702602e+01 2.8542872085332804e-01 5.8973965500191468e+02 8.5121911260001607e-04 4.0854225388367774e+02
                       8.0609438855048718e-04 2.3252840265969303e+02 2.8512791120708586e-01 5.8975808573271968e+02 2.2108400864473366e-03 2.6069838743570667e+01 9.4824020085057525e-01 4.7234517438735179e+02
                       2.8510765897240536e-01 4.0976458113764318e+02 8.0951688475069006e-04 4.1170474360994984e+02 9.4823972666742407e-01 4.7234516741962369e+02 2.2099353160377260e-03 2.5715744704900949e+01
1.9725927357986109e+14 1.3282088945478063e-03 3.9006109446171143e+02 9.5902275148554095e-01 3.6837022062649379e+02 7.5057970151866642e-04 2.4480278054775991e+02 2.7989627623100860e-01 4.3462156179124065e+02
                       9.5904491956052007e-01 3.6836590082141186e+02 1.2654953870910946e-03 3.6945916767026986e+01 2.7989769506950096e-01 6.1461626086007300e+02 7.5411829858403100e-04 4.2428597924110460e+02
                       7.1083219906831088e-04 2.4910066855568380e+02 2.7958622328367011e-01 6.1463959555188262e+02 1.0943064020586932e-03 2.1501334048937867e+01 9.5156077276047435e-01 5.0106777657085712e+02
                       2.7958910787713814e-01 4.3464031495455708e+02 7.1451923788480446e-04 4.2829956407750512e+02 9.5156104272866326e-01 5.0106775040660057e+02 1.1009500927021902e-03 2.0911153334953241e+01
1.9777974659722222e+14 1.5646100868570284e-03 3.8701663800445425e+02 9.5939702348491940e-01 3.8954363378100163e+02 6.9251877332137247e-04 2.5925983825280753e+02 2.7478109380852778e-01 4.5967195912144018e+02
                       9.5930435069409414e-01 3.8954512614889188e+02 1.5864559931456231e-03 2.2891457303635477e+01 2.7478238516210790e-01 6.3966662082517871e+02 6.9696912243717962e-04 4.3879386661177909e+02
                       6.5502276440238916e-04 2.6415428214161352e+02 2.7452585040296817e-01 6.3968326966054030e+02 1.3887249005382182e-03 -8.6755196766915432e+00 9.5151222275600855e-01 5.2979777014167541e+02
                       2.7449778413657988e-01 4.5968869869847492e+02 6.5898836396131389e-04 4.4330768120902064e+02 9.5151183915013982e-01 5.2979776494983696e+02 1.4000117931043980e-03 -8.6783875766827059e+00
1.9830021961458331e+14 9.9481999804953091e-04 3.6870253841859852e+02 9.6176940127678656e-01 4.1084951898664872e+02 6.4155083856669987e-04 2.7654978504706975e+02 2.6913702650738364e-01 4.8465695778743361e+02
